# HZ S RI R 50
1000000 0.004979458 0.024872532 0.982446074 -0.164436221 0 0 0 0
1990000 0.017870837 0.044894494 0.940594196 -0.319828152 0 0 0 0
2980000 0.036028344 0.06001041 0.874640226 -0.465589761 0 0 0 0
3970000 0.05808347 0.068759001 0.786624014 -0.597820103 0 0 0 0
4960000 0.081450685 0.071141026 0.678992569 -0.713851034 0 0 0 0
5950000 0.105461627 0.067347154 0.554422318 -0.810797691 0 0 0 0
6940000 0.128812432 0.057825896 0.418256282 -0.887427449 0 0 0 0
7930000 0.148355469 0.040898744 0.269445508 -0.938789963 0 0 0 0
8920000 0.163393512 0.019692126 0.115484304 -0.967267513 0 0 0 0
9910000 0.173154845 -0.004711461 -0.040742911 -0.97130835 0 0 0 0
10900000 0.176575616 -0.030699631 -0.195997983 -0.950330376 0 0 0 0
11890000 0.173712924 -0.056674804 -0.346247673 -0.904550611 0 0 0 0
12880000 0.164125993 -0.080895327 -0.488245934 -0.835648477 0 0 0 0
13870000 0.149403899 -0.101821839 -0.617901027 -0.744434714 0 0 0 0
14860000 0.130269348 -0.118081659 -0.732159495 -0.632406353 0 0 0 0
15850000 0.108182631 -0.128040462 -0.827891886 -0.50182712 0 0 0 0
16840000 0.084461621 -0.131730064 -0.901121675 -0.355354517 0 0 0 0
17830000 0.061401456 -0.128513678 -0.949891328 -0.196616053 0 0 0 0
18820000 0.041335888 -0.118925958 -0.970452129 -0.029013186 0 0 0 0
19810000 0.025344859 -0.103829354 -0.961544632 0.142234668 0 0 0 0
20800000 0.015418536 -0.085683248 -0.921203732 0.312248826 0 0 0 0
21790000 0.012373208 -0.065255492 -0.849291622 0.474575132 0 0 0 0
22780000 0.015825377 -0.046381041 -0.746306419 0.623186886 0 0 0 0
23770000 0.025226617 -0.030776157 -0.615106344 0.751428365 0 0 0 0
24760000 0.037400633 -0.020739817 -0.459061086 0.853795349 0 0 0 0
25750000 0.05027249 -0.016416419 -0.283228486 0.925471365 0 0 0 0
26740000 0.060007914 -0.017854293 -0.092456683 0.961004912 0 0 0 0
27730000 0.063209615 -0.022682886 0.105920672 0.957243442 0 0 0 0
28720000 0.057520609 -0.026573499 0.30465129 0.911510109 0 0 0 0
29710000 0.041149143 -0.022970765 0.496024847 0.820815205 0 0 0 0
30700000 0.017269847 -0.003127284 0.675317764 0.6773597 0 0 0 0
31690000 -0.005383733 0.041996337 0.820861279 0.479838043 0 0 0 0
32680000 -0.008679344 0.118479259 0.908450245 0.235395163 0 0 0 0
33670000 0.031393717 0.218180969 0.912900745 -0.037397056 0 0 0 0
34660000 0.137001901 0.315754324 0.815389871 -0.300650447 0 0 0 0
35650000 0.307776242 0.366075515 0.623956978 -0.501385986 0 0 0 0
36640000 0.508374333 0.329520195 0.384411007 -0.597211778 0 0 0 0
37630000 0.684373974 0.203425839 0.159158855 -0.587418913 0 0 0 0
38620000 0.796214818 0.018882418 -0.009353026 -0.508059144 0 0 0 0
39610000 0.835359334 -0.182806015 -0.112845554 -0.402116984 0 0 0 0
40600000 0.813052237 -0.373230457 -0.164037391 -0.298922508 0 0 0 0
41590000 0.748342812 -0.537854552 -0.180566847 -0.211430758 0 0 0 0
42580000 0.656183779 -0.672010719 -0.176867142 -0.142838776 0 0 0 0
43570000 0.547885775 -0.77714771 -0.162974983 -0.091299593 0 0 0 0
44560000 0.431917399 -0.855687558 -0.144639402 -0.053717978 0 0 0 0
45550000 0.313170105 -0.911253809 -0.125336885 -0.026884282 0 0 0 0
46540000 0.194777429 -0.946866273 -0.106813326 -0.008223755 0 0 0 0
47530000 0.079195246 -0.965414047 -0.089980423 0.004534158 0 0 0 0
48520000 -0.032217249 -0.969222128 -0.075000286 0.012922812 0 0 0 0
49510000 -0.138258814 -0.959831714 -0.062059491 0.018201043 0 0 0 0
50500000 -0.239037349 -0.939561128 -0.050904631 0.021252963 0 0 0 0
51490000 -0.333036839 -0.909773468 -0.041524868 0.022685399 0 0 0 0
52480000 -0.420455247 -0.87179023 -0.033655311 0.023080058 0 0 0 0
53470000 -0.501115202 -0.826595008 -0.026912013 0.02270784 0 0 0 0
54460000 -0.574510335 -0.775267958 -0.021424014 0.021872822 0 0 0 0
55450000 -0.641205966 -0.719074964 -0.016856733 0.020668264 0 0 0 0
56440000 -0.700723528 -0.658378005 -0.01301717 0.019331879 0 0 0 0
57430000 -0.75344479 -0.594211995 -0.009886886 0.017825486 0 0 0 0
58420000 -0.799213469 -0.527211964 -0.007384927 0.016410779 0 0 0 0
59410000 -0.83823055 -0.45825389 -0.005273796 0.014975239 0 0 0 0
60400000 -0.870728075 -0.387719213 -0.003578592 0.013594084 0 0 0 0
61390000 -0.896609008 -0.31596595 -0.002214317 0.012269992 0 0 0 0
62380000 -0.916609168 -0.244159996 -0.001110775 0.011031236 0 0 0 0
63370000 -0.930405974 -0.172126919 -0.000264368 0.009881226 0 0 0 0
64360000 -0.938590347 -0.100176177 0.000450681 0.008858829 0 0 0 0
65350000 -0.941270828 -0.029561381 0.000950899 0.007867227 0 0 0 0
66340000 -0.938502192 0.040151104 0.001361561 0.007021419 0 0 0 0
67330000 -0.930716335 0.108170844 0.00167247 0.006230229 0 0 0 0
68320000 -0.918329179 0.174511611 0.001863836 0.005474932 0 0 0 0
69310000 -0.901455163 0.23905918 0.002028034 0.004840566 0 0 0 0
70300000 -0.880122601 0.301239073 0.002133347 0.0042558 0 0 0 0
71290000 -0.855211913 0.360691338 0.002185326 0.003746352 0 0 0 0
72280000 -0.82630074 0.417744845 0.002174287 0.003286187 0 0 0 0
73270000 -0.794397473 0.471995085 0.002191428 0.002908566 0 0 0 0
74260000 -0.759256899 0.523635268 0.002122198 0.002593413 0 0 0 0
75250000 -0.721392035 0.571905851 0.002025223 0.002201365 0 0 0 0
76240000 -0.680919349 0.617167711 0.002015365 0.001929949 0 0 0 0
77230000 -0.638096213 0.659352362 0.001950737 0.001641271 0 0 0 0
78220000 -0.593268215 0.698309898 0.001864186 0.001542969 0 0 0 0
79210000 -0.5469985 0.733560979 0.001809611 0.001333882 0 0 0 0
80200000 -0.498852759 0.765721678 0.001750178 0.001192982 0 0 0 0
81190000 -0.449659377 0.794350385 0.001707105 0.001097165 0 0 0 0
82180000 -0.399462342 0.819584727 0.001659914 0.000951547 0 0 0 0
83170000 -0.348416209 0.841823995 0.001665077 0.0008347 0 0 0 0
84160000 -0.296553194 0.860625743 0.001631946 0.000671266 0 0 0 0
85150000 -0.243928179 0.876110076 0.001631752 0.000541727 0 0 0 0
86140000 -0.191435977 0.888198733 0.001538361 0.000434311 0 0 0 0
87130000 -0.138803705 0.897452056 0.0015549 0.000286131 0 0 0 0
88120000 -0.08660458 0.903940796 0.001513139 0.000191368 0 0 0 0
89110000 -0.033866204 0.907018482 0.001474429 0.000155466 0 0 0 0
90100000 0.017698425 0.907044172 0.001449416 6.3376e-05 0 0 0 0
91090000 0.068977639 0.904491186 0.001343521 1.692e-06 0 0 0 0
92080000 0.119858972 0.899123072 0.001351026 -9.6489e-05 0 0 0 0
93070000 0.169834598 0.891278862 0.00129271 -0.000214305 0 0 0 0
94060000 0.219117611 0.880691349 0.001259892 -0.000393596 0 0 0 0
95050000 0.266928225 0.867697477 0.001138413 -0.00030608 0 0 0 0
96040000 0.313648134 0.851995885 0.001097845 -0.000392379 0 0 0 0
97030000 0.359158873 0.834483146 0.001006722 -0.000449326 0 0 0 0
98020000 0.403676271 0.814567804 0.00097753 -0.000475567 0 0 0 0
99010000 0.446272403 0.793009221 0.000779993 -0.001117078 0 0 0 0
100000000 0.48768419 0.768886446 0.000857108 -0.000604288 0 0 0 0
