# HZ S RI R 50
1000000 0.007099321000000001 0.015360573666666667 0.9664533533333334 -0.226234937 0 0 0 0
1990000 0.015347216333333332 0.025777160666666663 0.8892656556666667 -0.436193843 0 0 0 0
2980000 0.024250032666666668 0.031964342666666666 0.7675399776666666 -0.623095035 0 0 0 0
3970000 0.032866134666666665 0.034376215999999994 0.6073394013333333 -0.7778934633333333 0 0 0 0
4960000 0.03923167233333333 0.03370523033333333 0.4157878556666667 -0.8934911883333333 0 0 0 0
5950000 0.04260679566666667 0.031837745 0.2023927613333333 -0.9631474806666667 0 0 0 0
6940000 0.04366475066666667 0.030141109666666666 -0.022224624333333335 -0.9846204713333334 0 0 0 0
7930000 0.040213900999999996 0.029496978666666663 -0.2487014426666667 -0.9502107890000001 0 0 0 0
8920000 0.03507295333333334 0.03306 -0.4633289173333333 -0.8648628386666667 0 0 0 0
9910000 0.030177375333333336 0.041054443333333336 -0.6540444486666667 -0.7296881473333334 0 0 0 0
10900000 0.028003632333333334 0.05360106566666667 -0.8088412876666666 -0.5500247476666665 0 0 0 0
11890000 0.031157898 0.06941864633333333 -0.9166960313333333 -0.3348312176666666 0 0 0 0
12880000 0.04198395633333333 0.083471134 -0.9680068089999999 -0.094633986 0 0 0 0
13870000 0.05920091466666666 0.09527890100000001 -0.9578263160000001 0.15302503033333334 0 0 0 0
14860000 0.08162258 0.09599761600000001 -0.882449587 0.395827412 0 0 0 0
15850000 0.102310416 0.08210586199999999 -0.7426305803333334 0.6162522433333334 0 0 0 0
16840000 0.11051160533333333 0.05240520033333334 -0.5419787166666666 0.7975920036666667 0 0 0 0
17830000 0.09230892833333333 0.011605792666666665 -0.2853968436666667 0.9222997423333333 0 0 0 0
18820000 0.03157703033333333 -0.023318224666666665 0.018384168333333336 0.9655845156666666 0 0 0 0
19810000 -0.07814025333333334 -0.017082039333333333 0.3463081316666667 0.894406 0 0 0 0
20800000 -0.211401929 0.08118105366666666 0.6395524140000001 0.6756710803333332 0 0 0 0
21790000 -0.2832762993333333 0.299511303 0.795995076 0.3259336443333333 0 0 0 0
22780000 -0.1963981983333333 0.5672233893333333 0.7397405696666667 -0.033712053666666665 0 0 0 0
23770000 0.04122477966666666 0.7485852433333333 0.5346397553333333 -0.2604805823333333 0 0 0 0
24760000 0.32102626500000003 0.783792674 0.314332604 -0.3304531173333333 0 0 0 0
25750000 0.5600282543333334 0.7091065043333332 0.151613066 -0.307868828 0 0 0 0
26740000 0.7336475046666667 0.5805603853333333 0.05149770233333333 -0.252552807 0 0 0 0
27730000 0.8493942413333334 0.43263782033333337 -0.0038179213333333333 -0.194962635 0 0 0 0
28720000 0.9206954433333334 0.28369128666666665 -0.031544594333333335 -0.14568681466666666 0 0 0 0
29710000 0.959164738 0.14233319433333333 -0.043371638 -0.10685889333333332 0 0 0 0
30700000 0.972977916 -0.004721426 -0.047107760666666665 -0.07691080066666667 0 0 0 0
31690000 0.9642533256666667 -0.146955435 -0.04608928633333333 -0.054410896333333326 0 0 0 0
32680000 0.9368050493333334 -0.27706828666666666 -0.04260540299999999 -0.03771612233333333 0 0 0 0
33670000 0.8945911126666667 -0.39474935299999997 -0.03809223533333333 -0.025563117666666666 0 0 0 0
34660000 0.840429524 -0.5004221396666667 -0.03326364033333334 -0.016690865 0 0 0 0
35650000 0.777386069 -0.594277501 -0.02868029633333333 -0.010333370000000001 0 0 0 0
36640000 0.7067122653333332 -0.6767986213333334 -0.024499073666666666 -0.005780032333333333 0 0 0 0
37630000 0.6304835273333333 -0.7480846243333333 -0.020766583 -0.002574146666666667 0 0 0 0
38620000 0.54970628 -0.8089707886666666 -0.017499421 -0.00028268900000000003 0 0 0 0
39610000 0.466090599 -0.8593493099999999 -0.014674338 0.0012392450000000001 0 0 0 0
40600000 0.3801004783333333 -0.8999015683333332 -0.012255763666666667 0.002233533 0 0 0 0
41590000 0.293079346 -0.9310464653333334 -0.010194946666666666 0.0028633846666666664 0 0 0 0
42580000 0.20579141833333334 -0.9533928826666666 -0.008462209333333333 0.0032450346666666667 0 0 0 0
43570000 0.11883244833333334 -0.9669919606666667 -0.006989011333333333 0.0034397856666666666 0 0 0 0
44560000 0.03286296066666666 -0.9725563123333334 -0.00575939 0.0034716996666666667 0 0 0 0
45550000 -0.05183334966666667 -0.9704995746666666 -0.0047493353333333335 0.0034178206666666665 0 0 0 0
46540000 -0.134174083 -0.9611430360000001 -0.003887391 0.003334631666666667 0 0 0 0
47530000 -0.21412601499999998 -0.945066233 -0.003152551333333333 0.0031498296666666666 0 0 0 0
48520000 -0.29105343366666664 -0.9226165803333334 -0.0025468893333333333 0.003019268333333333 0 0 0 0
49510000 -0.36448984300000004 -0.894371688 -0.0020414143333333337 0.0028197683333333334 0 0 0 0
50500000 -0.434493094 -0.860477566 -0.0016148339999999999 0.002657021666666667 0 0 0 0
51490000 -0.5006226693333334 -0.8216653859999999 -0.0012618373333333334 0.0024507260000000003 0 0 0 0
52480000 -0.5625330603333333 -0.7783155236666666 -0.000971497 0.0022950559999999997 0 0 0 0
53470000 -0.6198297733333333 -0.7307943296666668 -0.0006990333333333334 0.0021247516666666666 0 0 0 0
54460000 -0.672765751 -0.6797744426666666 -0.000496117 0.001970463333333333 0 0 0 0
55450000 -0.7208475463333333 -0.6250752203333333 -0.00032543333333333335 0.0017860600000000001 0 0 0 0
56440000 -0.7642700073333334 -0.5678323103333334 -0.0001884656666666667 0.0016796583333333335 0 0 0 0
57430000 -0.8024502393333334 -0.5079528883333333 -9.249633333333334e-05 0.0015497390000000003 0 0 0 0
58420000 -0.8358549869999999 -0.446288148 1.9628e-05 0.0014295159999999998 0 0 0 0
59410000 -0.864272912 -0.3830592726666667 9.350866666666667e-05 0.0013281996666666667 0 0 0 0
60400000 -0.887601256 -0.31859912400000007 0.00018015499999999999 0.0011982303333333332 0 0 0 0
61390000 -0.906143486 -0.2529382803333333 0.00025262566666666667 0.0011700306666666668 0 0 0 0
62380000 -0.9196897343333333 -0.18733083166666664 0.000287415 0.0010665030000000001 0 0 0 0
63370000 -0.9284450603333333 -0.12135753233333334 0.0003375536666666667 0.0009735593333333333 0 0 0 0
64360000 -0.9322292603333334 -0.055628826 0.00037820999999999997 0.0009204316666666666 0 0 0 0
65350000 -0.9316479159999999 0.009706198333333332 0.00041349833333333337 0.0008486293333333333 0 0 0 0
66340000 -0.926541169 0.07415339766666666 0.00041925366666666666 0.0008100023333333334 0 0 0 0
67330000 -0.916898727 0.137332295 0.0004740723333333333 0.0007900373333333332 0 0 0 0
68320000 -0.9032660123333334 0.19901130066666664 0.0004822793333333334 0.0007109349999999999 0 0 0 0
69310000 -0.8854109636666667 0.259268333 0.0005053846666666666 0.000656509 0 0 0 0
70300000 -0.8641876173333333 0.317715555 0.0005384226666666666 0.0006238 0 0 0 0
71290000 -0.8390983536666666 0.37391919833333337 0.0005563283333333333 0.0005951366666666667 0 0 0 0
72280000 -0.810607552 0.42788350533333336 0.00056903 0.0005583163333333334 0 0 0 0
73270000 -0.7790269846666668 0.47960733333333333 0.0006150763333333333 0.0005249793333333333 0 0 0 0
74260000 -0.7444995636666666 0.528742313 0.000662923 0.00046269700000000003 0 0 0 0
75250000 -0.7070897813333333 0.5749627743333333 0.0006790529999999999 0.00043002866666666664 0 0 0 0
76240000 -0.6673722063333333 0.6187290743333334 0.0007371393333333332 0.0003677556666666667 0 0 0 0
77230000 -0.6253050163333334 0.6593154663333333 0.0007081803333333334 0.00032070266666666666 0 0 0 0
78220000 -0.5812186793333334 0.6967822903333333 0.0007951756666666667 0.000319403 0 0 0 0
79210000 -0.5354528023333333 0.7314160266666666 0.0007813913333333334 0.00024524199999999995 0 0 0 0
80200000 -0.48813841700000005 0.7625646189999999 0.000818633 0.000244844 0 0 0 0
81190000 -0.43946477733333333 0.7907294029999999 0.000863346 0.00020253899999999998 0 0 0 0
82180000 -0.38939980599999996 0.8154812446666666 0.0009162706666666666 0.000145171 0 0 0 0
83170000 -0.3387494973333333 0.8371297313333333 0.0009530933333333335 1.5964666666666666e-05 0 0 0 0
84160000 -0.2871794793333333 0.8555262483333334 0.0009904503333333333 -6.839933333333333e-05 0 0 0 0
85150000 -0.23494403033333333 0.8706068989999999 0.000984471 -0.00022589833333333333 0 0 0 0
86140000 -0.18260153099999998 0.8823724386666667 0.0009542793333333333 -0.00030348 0 0 0 0
87130000 -0.12997608366666666 0.8913087839999999 0.0009020983333333333 -0.0003505883333333333 0 0 0 0
88120000 -0.077346024 0.8971768613333334 0.0008785893333333334 -0.0003983263333333334 0 0 0 0
89110000 -0.024841349666666665 0.89996769 0.0008390346666666666 -0.0004931003333333334 0 0 0 0
90100000 0.02699852333333333 0.8998899653333333 0.0007632333333333334 -0.000575692 0 0 0 0
91090000 0.07857987500000001 0.8968273196666666 0.0007375143333333334 -0.000627897 0 0 0 0
92080000 0.12963028699999998 0.890927036 0.000654762 -0.0006835523333333333 0 0 0 0
93070000 0.17974736733333332 0.8824122339999999 0.0005921836666666667 -0.000704518 0 0 0 0
94060000 0.229042465 0.8713851566666667 0.0005643116666666667 -0.0006906623333333334 0 0 0 0
95050000 0.277508288 0.8576405239999999 0.0005659103333333334 -0.0007367273333333334 0 0 0 0
96040000 0.32446683400000004 0.8415957683333333 0.0005300163333333333 -0.0008038326666666666 0 0 0 0
97030000 0.3702565226666666 0.823081195 0.000505876 -0.0008833726666666666 0 0 0 0
98020000 0.41466896700000005 0.802332957 0.0003765633333333333 -0.0009223173333333333 0 0 0 0
99010000 0.4575536246666667 0.7796736156666667 0.0002618053333333333 -0.0007365059999999999 0 0 0 0
100000000 0.49918317766666664 0.754920025 0.00013779433333333335 -0.0009465816666666668 0 0 0 0
