# HZ S RI R 50
1000000 -0.000435181 -0.001386997 0.880407214 -0.454667687 0 0 0 0
1590000 -0.005650253 0.004455553 0.718747496 -0.680327534 0 0 0 0
2180000 -0.006235965 0.017423203 0.499645739 -0.852355182 0 0 0 0
2770000 0.00330499 0.032761234 0.240665197 -0.957231342 0 0 0 0
3360000 0.024639289 0.043959528 -0.039711851 -0.984289765 0 0 0 0
3950000 0.053913537 0.042673766 -0.318658918 -0.930386364 0 0 0 0
4540000 0.082130752 0.024057073 -0.572526097 -0.796984195 0 0 0 0
5130000 0.098028369 -0.009026194 -0.779490113 -0.59310466 0 0 0 0
5720000 0.092432737 -0.047096289 -0.919565141 -0.333372801 0 0 0 0
6310000 0.064330264 -0.076102942 -0.977071344 -0.038542181 0 0 0 0
6900000 0.020555043 -0.079857356 -0.940659523 0.269329667 0 0 0 0
7490000 -0.017340084 -0.052144218 -0.801619172 0.558946013 0 0 0 0
8080000 -0.031676225 -0.001144773 -0.566732525 0.795505344 0 0 0 0
8670000 -0.011935848 0.051242712 -0.250385999 0.941672265 0 0 0 0
9260000 0.030103981 0.07974378 0.11422652 0.964264869 0 0 0 0
9850000 0.058184523 0.079570539 0.482974171 0.838793039 0 0 0 0
10440000 0.037583779 0.093204766 0.796357154 0.54447335 0 0 0 0
11030000 0.003288333 0.215886503 0.937926232 0.0706463 0 0 0 0
11620000 0.150865241 0.454312473 0.716497182 -0.430169224 0 0 0 0
12210000 0.551639437 0.497424215 0.24470812 -0.573514699 0 0 0 0
12800000 0.857191801 0.235635548 -0.04512253 -0.40414229 0 0 0 0
13390000 0.945337116 -0.085499949 -0.121902473 -0.226023212 0 0 0 0
13980000 0.908095002 -0.347809642 -0.116174414 -0.11680904 0 0 0 0
14570000 0.816765844 -0.543007314 -0.092203751 -0.057753879 0 0 0 0
15160000 0.708090484 -0.683735787 -0.068964347 -0.0270243 0 0 0 0
15750000 0.593510925 -0.786678016 -0.050583146 -0.011023635 0 0 0 0
16340000 0.481119006 -0.86020112 -0.036913223 -0.002827838 0 0 0 0
16930000 0.37346366 -0.91137284 -0.026924449 0.001168323 0 0 0 0
17520000 0.271765232 -0.946016907 -0.0197368 0.003017935 0 0 0 0
18110000 0.177068218 -0.967218101 -0.014598275 0.00375529 0 0 0 0
18700000 0.089199975 -0.97852838 -0.010824053 0.003891628 0 0 0 0
19290000 0.007158171 -0.981989026 -0.008098498 0.003673299 0 0 0 0
19880000 -0.068858519 -0.978382766 -0.006099055 0.00338419 0 0 0 0
20470000 -0.13849461 -0.970680415 -0.004669488 0.003059037 0 0 0 0
21060000 -0.203934922 -0.958159506 -0.003520173 0.002655837 0 0 0 0
21650000 -0.263398617 -0.942421853 -0.002675817 0.002313779 0 0 0 0
22240000 -0.31899318 -0.924359142 -0.002108482 0.002044708 0 0 0 0
22830000 -0.370459854 -0.904647707 -0.001613371 0.0017513 0 0 0 0
23420000 -0.418140292 -0.882778704 -0.001258018 0.001532539 0 0 0 0
24010000 -0.462147027 -0.859964251 -0.000999683 0.001332383 0 0 0 0
24600000 -0.50302428 -0.836359202 -0.000743323 0.001151684 0 0 0 0
25190000 -0.54080379 -0.81171298 -0.000566346 0.001022032 0 0 0 0
25780000 -0.57590717 -0.786678254 -0.000522232 0.000910068 0 0 0 0
26370000 -0.60866487 -0.760904431 -0.000367035 0.000808363 0 0 0 0
26960000 -0.639175713 -0.735002815 -0.000313833 0.000694622 0 0 0 0
27550000 -0.667177259 -0.708856523 -0.000238076 0.000620546 0 0 0 0
28140000 -0.693302154 -0.682628333 -0.000240388 0.000610321 0 0 0 0
28730000 -0.717545807 -0.656628787 -0.000128229 0.000583108 0 0 0 0
29320000 -0.74025011 -0.630633234 -0.000105699 0.000481055 0 0 0 0
29910000 -0.760986149 -0.604580402 -3.821e-05 0.000419133 0 0 0 0
30500000 -0.787462234 -0.568630278 -2.8019e-05 0.000350896 0 0 0 0
31090000 -0.812661588 -0.530099809 -4.8161e-05 0.000407176 0 0 0 0
31680000 -0.835647404 -0.491439163 -1.1404e-05 0.000348516 0 0 0 0
32270000 -0.856704652 -0.45219168 1.5541e-05 0.000335523 0 0 0 0
32860000 -0.875334739 -0.413373172 4.78e-06 0.000306106 0 0 0 0
33450000 -0.89173609 -0.373909026 2.9296e-05 0.000311486 0 0 0 0
34040000 -0.9065876 -0.334442704 2.4769e-05 0.000310078 0 0 0 0
34630000 -0.919336974 -0.295146077 5.6003e-05 0.000229194 0 0 0 0
35220000 -0.930119752 -0.255712747 -9.5065e-05 0.000384658 0 0 0 0
35810000 -0.939106523 -0.21663092 9.5998e-05 0.000264014 0 0 0 0
36400000 -0.946504652 -0.17778939 6.9434e-05 0.000267042 0 0 0 0
36990000 -0.952058672 -0.139117151 7.6329e-05 0.000237367 0 0 0 0
37580000 -0.956284701 -0.100697301 4.742e-05 0.00021609 0 0 0 0
38170000 -0.95859605 -0.062633529 0.000136276 0.000241596 0 0 0 0
38760000 -0.95975846 -0.0250234 7.5866e-05 0.00020123 0 0 0 0
39350000 -0.95903486 0.012185529 0.000100643 0.00020108 0 0 0 0
39940000 -0.95700401 0.048691548 0.000104022 0.000174217 0 0 0 0
40530000 -0.953781008 0.085129365 0.000130907 0.000214937 0 0 0 0
41120000 -0.949239253 0.120685294 0.000124376 0.000233804 0 0 0 0
41710000 -0.943098127 0.155716001 0.00019681 0.000155317 0 0 0 0
42300000 -0.936124801 0.190406531 0.000139945 0.000242338 0 0 0 0
42890000 -0.927640318 0.224396944 0.000176568 0.000219378 0 0 0 0
43480000 -0.918112874 0.257443428 0.00020646 0.000142773 0 0 0 0
44070000 -0.90757066 0.290134072 0.000180782 0.000200458 0 0 0 0
44660000 -0.895784556 0.322165429 0.000203017 0.00016177 0 0 0 0
45250000 -0.883354663 0.353190809 0.000198209 0.000200751 0 0 0 0
45840000 -0.869717597 0.383737713 0.000166728 0.000198743 0 0 0 0
46430000 -0.855187952 0.413486599 0.000211744 0.000205314 0 0 0 0
47020000 -0.839962482 0.442398995 0.000247988 0.000188191 0 0 0 0
47610000 -0.8235839 0.470900058 0.000245469 0.000248891 0 0 0 0
48200000 -0.806385338 0.498149544 0.00023471 0.000189096 0 0 0 0
48790000 -0.788712382 0.525111258 0.000201455 0.000167766 0 0 0 0
49380000 -0.769748032 0.550896286 0.000275534 0.000158195 0 0 0 0
49970000 -0.750228703 0.576000213 0.000280624 0.000180177 0 0 0 0
50560000 -0.73019725 0.600221097 0.000315101 0.000172059 0 0 0 0
51150000 -0.709601342 0.623714089 0.000301456 0.000262175 0 0 0 0
51740000 -0.688285708 0.646488964 0.000288221 0.000161663 0 0 0 0
52330000 -0.666376769 0.668079197 0.000273546 0.000144871 0 0 0 0
52920000 -0.64390403 0.688846409 0.000326261 0.000129794 0 0 0 0
53510000 -0.62090224 0.70909816 0.000277312 0.000157048 0 0 0 0
54100000 -0.597376465 0.728250682 0.00033511 9.2151e-05 0 0 0 0
54690000 -0.573497056 0.746510922 0.000358042 0.000166303 0 0 0 0
55280000 -0.549207448 0.763845562 0.000323662 0.000112018 0 0 0 0
55870000 -0.524602711 0.780659377 0.000369163 7.954e-05 0 0 0 0
56460000 -0.499202072 0.796277046 0.000387125 8.6192e-05 0 0 0 0
57050000 -0.474095612 0.81124401 0.000371036 9.5723e-05 0 0 0 0
57640000 -0.448447942 0.825255572 0.000395697 8.9742e-05 0 0 0 0
58230000 -0.422383427 0.838493585 0.000376547 7.7694e-05 0 0 0 0
58820000 -0.396442085 0.850780606 0.000405987 8.9092e-05 0 0 0 0
59410000 -0.36950165 0.862289488 0.000431266 6.8169e-05 0 0 0 0
60000000 -0.342892765 0.872715771 0.000407101 8.8341e-05 0 0 0 0
