# HZ S RI R 50
1000000 -0.07353188 -0.045918021 0.41163814 -0.89830631 0 0 0 0
1140000 -0.07690481 -0.035020217 0.262497663 -0.951950728 0 0 0 0
1280000 -0.074634745 -0.02337503 0.105869621 -0.981746375 0 0 0 0
1420000 -0.066019952 -0.01338924 -0.054861035 -0.985848069 0 0 0 0
1560000 -0.052677303 -0.007338366 -0.215382918 -0.963699698 0 0 0 0
1700000 -0.035557925 -0.006943909 -0.371816396 -0.914772152 0 0 0 0
1840000 -0.017791025 -0.013333817 -0.519179284 -0.839497923 0 0 0 0
1980000 -0.00183814 -0.026526559 -0.653019964 -0.739086449 0 0 0 0
2120000 0.009545926 -0.045627456 -0.768164932 -0.61600399 0 0 0 0
2260000 0.013746777 -0.068295612 -0.861005783 -0.473588913 0 0 0 0
2400000 0.010236836 -0.091625213 -0.927318215 -0.315583318 0 0 0 0
2540000 -0.001568987 -0.112320743 -0.965094447 -0.14748156 0 0 0 0
2680000 -0.020565167 -0.126836404 -0.972711741 0.025902563 0 0 0 0
2820000 -0.043166801 -0.132852643 -0.949342191 0.199380412 0 0 0 0
2960000 -0.066687256 -0.128670588 -0.895202696 0.367492765 0 0 0 0
3100000 -0.086773484 -0.114355392 -0.810461997 0.526147305 0 0 0 0
3240000 -0.099937304 -0.091790251 -0.695893764 0.669523239 0 0 0 0
3380000 -0.102487504 -0.064176917 -0.552569627 0.791826307 0 0 0 0
3520000 -0.093905411 -0.036065373 -0.382820099 0.886740803 0 0 0 0
3660000 -0.074644409 -0.012977284 -0.190769478 0.946926653 0 0 0 0
3800000 -0.049474466 0.001574689 0.016976702 0.965095996 0 0 0 0
3940000 -0.02479775 0.005886913 0.231811612 0.93549937 0 0 0 0
4080000 -0.008544466 0.003451795 0.442366003 0.85339564 0 0 0 0
4220000 -0.006183701 0.004386596 0.635693848 0.71613866 0 0 0 0
4360000 -0.016044626 0.023673448 0.796066284 0.522582411 0 0 0 0
4500000 -0.023350348 0.078879177 0.902029097 0.273319542 0 0 0 0
4640000 0.005523359 0.178663998 0.920601367 -0.020987946 0 0 0 0
4780000 0.119325399 0.296774327 0.813439428 -0.319400221 0 0 0 0
4920000 0.336827635 0.356879353 0.574878692 -0.537367284 0 0 0 0
5060000 0.59274435 0.279002279 0.28326407 -0.598372519 0 0 0 0
5200000 0.777779877 0.07674095 0.051489591 -0.521528363 0 0 0 0
5340000 0.847324252 -0.164965137 -0.077592864 -0.392099052 0 0 0 0
5480000 0.828337371 -0.382461726 -0.12752375 -0.272412657 0 0 0 0
5620000 0.759912073 -0.5545578 -0.134931191 -0.181907594 0 0 0 0
5760000 0.670062601 -0.683433592 -0.124047741 -0.119132429 0 0 0 0
5900000 0.574317693 -0.777897536 -0.107242457 -0.077024243 0 0 0 0
6040000 0.479999154 -0.84673959 -0.089987576 -0.049296446 0 0 0 0
6180000 0.390209406 -0.896142303 -0.074467867 -0.031016116 0 0 0 0
6320000 0.305319577 -0.930910408 -0.061223987 -0.018937218 0 0 0 0
6460000 0.226951286 -0.955320954 -0.050278738 -0.011311637 0 0 0 0
6600000 0.155255451 -0.971047878 -0.041255351 -0.005706416 0 0 0 0
6740000 0.089469946 -0.980232 -0.033994529 -0.002251541 0 0 0 0
6880000 0.028290076 -0.985295832 -0.027974341 -8.6115e-05 0 0 0 0
7020000 -0.029052358 -0.985574781 -0.02300653 0.001317907 0 0 0 0
7160000 -0.081593357 -0.982349872 -0.019048277 0.002117538 0 0 0 0
7300000 -0.130310773 -0.977475523 -0.015852235 0.002647209 0 0 0 0
7440000 -0.175350174 -0.970867455 -0.013270674 0.002836281 0 0 0 0
7580000 -0.217382311 -0.962467849 -0.011085217 0.002922045 0 0 0 0
7720000 -0.256423205 -0.952590882 -0.009262107 0.002896432 0 0 0 0
7860000 -0.292824059 -0.942080438 -0.007849982 0.00276769 0 0 0 0
8000000 -0.326579362 -0.930946528 -0.006679667 0.002651704 0 0 0 0
8140000 -0.35860607 -0.919444501 -0.005678056 0.002463217 0 0 0 0
8280000 -0.388729512 -0.907355427 -0.004773383 0.002280094 0 0 0 0
8420000 -0.416853308 -0.894693076 -0.004120703 0.002139062 0 0 0 0
8560000 -0.443447262 -0.881857335 -0.003528229 0.001987553 0 0 0 0
8700000 -0.467969894 -0.868796706 -0.003055548 0.00184456 0 0 0 0
8840000 -0.491375058 -0.855567455 -0.002611271 0.00168996 0 0 0 0
8980000 -0.513383269 -0.842560648 -0.002287902 0.001552393 0 0 0 0
9120000 -0.534118711 -0.829363167 -0.001965794 0.001438338 0 0 0 0
9260000 -0.554284036 -0.816428005 -0.001687573 0.001268085 0 0 0 0
9400000 -0.573083639 -0.803428828 -0.001463413 0.001151563 0 0 0 0
9540000 -0.590502142 -0.790614545 -0.001347737 0.001072117 0 0 0 0
9680000 -0.607337415 -0.778099 -0.001157003 0.001000898 0 0 0 0
9820000 -0.62299937 -0.765105843 -0.001021095 0.000893188 0 0 0 0
9960000 -0.638287067 -0.752510309 -0.00092203 0.000827922 0 0 0 0
10100000 -0.652753353 -0.740333557 -0.000809622 0.000747102 0 0 0 0
10240000 -0.666152536 -0.727549731 -0.000751709 0.000748762 0 0 0 0
10380000 -0.679081261 -0.715349912 -0.000635696 0.000683636 0 0 0 0
10520000 -0.691663265 -0.70331192 -0.000553891 0.000657708 0 0 0 0
10660000 -0.703436613 -0.691357791 -0.000507305 0.000540986 0 0 0 0
10800000 -0.714454531 -0.679726958 -0.000399672 0.000495765 0 0 0 0
10940000 -0.725113332 -0.667977333 -0.000375317 0.000434059 0 0 0 0
11080000 -0.735955357 -0.65644437 -0.00032243 0.000426236 0 0 0 0
11220000 -0.745535194 -0.645104467 -0.000322418 0.000414229 0 0 0 0
11360000 -0.755053043 -0.634030759 -0.000238186 0.000399774 0 0 0 0
11500000 -0.764131426 -0.623137354 -0.00025095 0.000365895 0 0 0 0
11640000 -0.772332072 -0.612385869 -0.000221897 0.000353245 0 0 0 0
11780000 -0.780721604 -0.601698756 -0.000218187 0.000340156 0 0 0 0
11920000 -0.788603782 -0.591320872 -0.000135326 0.000301494 0 0 0 0
12060000 -0.796264469 -0.580880343 -0.000160604 0.000302987 0 0 0 0
12200000 -0.803632736 -0.570590734 -0.000181417 0.000285531 0 0 0 0
12340000 -0.810735106 -0.56053704 -0.000191203 0.000294838 0 0 0 0
12480000 -0.817395329 -0.550631344 -0.000161568 0.000242944 0 0 0 0
12620000 -0.823741495 -0.54037404 -0.000124848 0.000276808 0 0 0 0
12760000 -0.830075562 -0.530824005 -0.000122609 0.000269348 0 0 0 0
12900000 -0.836100459 -0.521039366 -0.000119579 0.000196798 0 0 0 0
13040000 -0.841917216 -0.512130975 -0.000134522 0.000188152 0 0 0 0
13180000 -0.847339808 -0.502899765 -7.2446e-05 0.000136832 0 0 0 0
13320000 -0.852685987 -0.49347797 -0.000106963 0.000187222 0 0 0 0
13460000 -0.857812285 -0.484222978 -7.0021e-05 0.000161999 0 0 0 0
13600000 -0.862660884 -0.47543627 -0.000123215 0.000135441 0 0 0 0
13740000 -0.867227673 -0.466681063 -3.406e-05 0.000183732 0 0 0 0
13880000 -0.871916592 -0.458184093 -4.0474e-05 0.000201797 0 0 0 0
14020000 -0.876447439 -0.449452131 -5.8146e-05 0.000122868 0 0 0 0
14160000 -0.880549013 -0.441348195 -6.9301e-05 0.000152999 0 0 0 0
14300000 -0.884621381 -0.432619452 -3.3335e-05 0.000159915 0 0 0 0
14440000 -0.88848865 -0.424419105 -6.0389e-05 0.000153963 0 0 0 0
14580000 -0.892247736 -0.416404247 -4.4608e-05 0.000175877 0 0 0 0
14720000 -0.896023929 -0.408349841 -7.4238e-05 0.000187791 0 0 0 0
14860000 -0.899309933 -0.400500863 -2.388e-06 0.000153867 0 0 0 0
15000000 -0.903083264 -0.392407357 -6.8295e-05 0.000143836 0 0 0 0
